No size specified (using byte-data access)
     0  1  2  3  4  5  6  7  8  9  a  b  c  d  e  f    0123456789abcdef
00: 10 00 00 00 ff 33 0f ff ff ff 23 00 00 00 00 00    ?....3?...#.....
10: 00 00 00 00 00 00 00 00 00 64 00 1e 00 0f 02 00    .........d.?.??.
20: 00 00 00 00 00 00 00 00 00 00 00 00 00 00 00 00    ................
30: 00 00 00 00 17 20 00 00 00 00 f0 00 00 00 00 00    ....? ....?.....
40: 10 00 00 00 00 00 00 00 00 00 00 00 00 00 00 00    ?...............
50: 10 03 01 8a 01 00 00 00 00 00 1a 02 0a 03 00 00    ?????.....????..
60: 10 00 01 8c 01 00 00 00 00 00 1a 02 0a 03 00 00    ?.???.....????..
70: 00 00 00 00 00 00 00 00 00 00 00 00 00 00 00 00    ................
80: 00 00 00 00 00 00 00 00 00 00 00 00 00 00 00 00    ................
90: 00 00 00 00 00 00 00 00 00 00 00 00 00 00 00 00    ................
a0: 00 00 00 00 00 00 01 00 d3 00 00 00 00 00 00 00    ......?.?.......
b0: 00 00 00 00 00 00 00 00 00 00 00 00 00 00 00 00    ................
c0: 0c e4 cc 43 34 33 41 42 00 00 00 00 00 00 00 00    ???C43AB........
d0: 00 00 00 00 00 00 00 00 00 00 00 00 00 00 00 00    ................
e0: 00 00 00 00 00 00 00 00 00 00 00 00 00 00 00 00    ................
f0: cd 1f 1f 00 00 00 00 00 00 00 00 00 00 00 02 09    ???...........??
