
root@m1120-c46ab:/var/wcs/home# i2cdump -y -a 15 0x60
No size specified (using byte-data access)
     0  1  2  3  4  5  6  7  8  9  a  b  c  d  e  f    0123456789abcdef
00: 34 01 01 0f 01 00 00 00 78 4a 09 ff 23 00 00 00    4????...xJ?.#...
10: bf 96 6b f8 fd fb fe a7 9f 0f 00 00 00 00 00 00    ??k???????......
20: 64 5c de cf 7f 0d 00 00 fe 1f 00 00 00 00 00 00    d\????..??......
30: 00 00 f9 0b 00 00 00 00 00 00 00 00 00 00 00 00    ..??............
40: 10 00 00 00 00 00 00 00 00 00 00 00 00 00 00 00    ?...............
50: 00 00 00 00 00 00 00 00 00 00 00 00 00 00 00 00    ................
60: 00 00 00 00 00 00 00 00 00 00 00 00 00 00 00 00    ................
70: 00 00 00 00 00 00 00 00 00 00 00 00 00 00 00 00    ................
80: 00 00 00 00 00 00 00 00 00 00 00 00 00 00 00 00    ................
90: 00 00 00 00 00 00 00 00 00 00 00 00 00 00 00 00    ................
a0: 00 00 00 00 00 00 00 00 00 00 00 00 00 00 00 00    ................
b0: 00 00 00 00 00 00 00 00 00 00 00 00 00 00 00 00    ................
c0: 00 00 00 00 00 00 00 00 00 00 00 00 00 00 00 00    ................
d0: 00 00 00 00 00 00 00 00 00 00 00 00 00 00 00 00    ................
e0: 00 00 00 00 00 00 00 00 00 00 00 00 00 00 00 00    ................
f0: 00 03 04 00 05 16 25 00 00 00 00 00 00 00 00 00    .??.??%.........
root@m1120-c46ab:/var/wcs/home# i2cdump -y -a 5 0x30
No size specified (using byte-data access)
     0  1  2  3  4  5  6  7  8  9  a  b  c  d  e  f    0123456789abcdef
00: 00 00 c3 0c 01 80 00 03 00 b0 f6 00 00 c0 00 00    ..????.?.??..?..
10: 22 00 00 00 91 00 00 00 00 00 00 00 00 00 00 00    "...?...........
20: 00 00 00 00 00 00 00 00 00 00 00 00 00 03 0f 00    .............??.
30: 00 00 00 00 00 00 00 00 00 00 00 00 00 00 00 00    ................
40: 00 00 00 00 00 00 00 00 00 00 00 00 00 00 00 00    ................
50: cf 00 00 00 00 00 00 00 00 00 00 00 00 00 00 00    ?...............
60: 00 00 00 cf 00 00 67 f9 ff ff f4 00 00 00 00 00    ...?..g?..?.....
70: 00 00 00 00 00 00 00 00 84 00 00 80 00 00 7f 00    ........?..?..?.
80: 00 cf 00 00 e0 00 00 40 00 00 00 00 00 00 00 00    .?..?..@........
90: 00 00 00 00 00 00 00 80 02 3c 00 00 80 10 00 08    .......??<..??.?
a0: 43 80 00 00 fc 07 c0 00 03 00 66 00 30 01 00 00    C?..???.?.f.0?..
b0: 10 00 00 00 00 00 00 00 00 00 00 00 00 00 00 00    ?...............
c0: 00 00 00 00 00 00 00 00 00 00 00 00 00 00 00 00    ................
d0: 00 00 00 00 69 00 00 fe 00 00 00 00 00 00 00 00    ....i..?........
e0: 00 00 00 00 00 00 00 00 00 00 00 00 00 00 00 00    ................
f0: 00 00 00 00 00 00 00 00 00 00 00 00 00 00 02 09    ..............??
root@m1120-c46ab:/var/wcs/home#
root@m1120-c46ab:/var/wcs/home#
root@m1120-c46ab:/var/wcs/home# i2cdump -y -a 5 0x31
No size specified (using byte-data access)
     0  1  2  3  4  5  6  7  8  9  a  b  c  d  e  f    0123456789abcdef
00: 00 05 10 0c 01 00 00 00 00 00 00 00 00 00 00 00    .????...........
10: 00 00 00 00 00 00 00 00 00 00 00 00 00 00 00 00    ................
20: 00 00 00 00 00 ff 00 ff 00 f0 0f f0 00 f0 0f 00    .........???.??.
30: 01 00 f4 f0 f0 00 00 00 00 00 00 00 00 00 04 04    ?.???.........??
40: 10 00 00 00 00 00 00 00 00 00 00 00 00 00 00 00    ?...............
50: 00 00 00 00 00 00 00 00 00 00 00 00 00 00 00 00    ................
60: 00 00 00 00 00 00 00 00 00 00 00 00 00 00 00 00    ................
70: 00 00 00 00 00 00 00 00 00 00 00 00 00 00 00 00    ................
80: 00 00 00 00 00 00 00 00 00 00 00 00 00 00 00 00    ................
90: 00 00 00 00 00 00 00 00 00 00 00 00 00 00 00 00    ................
a0: 00 00 00 00 00 80 00 6d 00 07 07 00 00 00 00 01    .....?.m.??....?
b0: 00 00 00 00 00 00 00 00 00 00 00 00 00 00 00 00    ................
c0: 00 00 00 00 00 00 00 00 00 00 00 00 00 00 00 00    ................
d0: 00 00 00 00 00 00 00 00 00 00 00 00 00 00 00 00    ................
e0: 00 00 00 00 00 00 00 00 00 00 00 00 00 00 00 00    ................
f0: 00 00 00 00 00 00 00 00 00 00 00 00 00 00 02 08    ..............??
root@m1120-c46ab:/var/wcs/home#
root@m1120-c46ab:/var/wcs/home#
root@m1120-c46ab:/var/wcs/home#
root@m1120-c46ab:/var/wcs/home# i2cdump -y -a 6 0x30
No size specified (using byte-data access)
     0  1  2  3  4  5  6  7  8  9  a  b  c  d  e  f    0123456789abcdef
00: 10 00 00 00 ed 33 05 ff ff ff 03 00 00 00 00 00    ?...?3?...?.....
10: 00 00 00 00 00 00 00 00 00 64 0d 1e 00 0f 02 00    .........d??.??.
20: 00 00 00 00 00 00 00 00 00 00 00 00 00 00 00 00    ................
30: 00 00 00 00 1c 90 00 00 00 00 f0 00 00 00 00 00    ....??....?.....
40: 10 00 00 00 00 00 00 00 00 00 00 00 00 00 00 00    ?...............
50: 10 03 01 4f 01 00 00 00 00 00 1a 04 17 06 00 00    ???O?.....????..
60: 10 00 01 ef 81 00 00 00 00 00 1a 04 17 06 00 00    ?.???.....????..
70: 00 00 00 00 00 00 00 00 00 00 00 00 00 00 00 00    ................
80: 00 00 00 00 00 00 00 00 00 00 00 00 00 00 00 00    ................
90: 00 00 00 00 00 00 00 00 00 00 00 00 00 00 00 00    ................
a0: 00 00 00 00 00 00 01 00 1c 00 00 00 00 00 00 00    ......?.?.......
b0: 00 00 00 00 00 00 00 00 00 00 00 00 00 00 00 00    ................
c0: 0c e4 cc 43 34 33 41 42 00 00 00 00 00 00 00 00    ???C43AB........
d0: 00 00 00 00 00 00 00 00 00 00 00 00 00 00 00 00    ................
e0: 00 00 00 00 00 00 00 00 00 00 00 00 00 00 00 00    ................
f0: cd 1f 1f 00 00 00 00 00 00 00 00 00 00 00 02 09    ???...........??
root@m1120-c46ab:/var/wcs/home# 