No size specified (using byte-data access)
     0  1  2  3  4  5  6  7  8  9  a  b  c  d  e  f    0123456789abcdef
00: 00 00 c3 0d 03 80 00 03 00 ff fe 00 00 fc 00 00    ..????.?..?..?..
10: ff 40 fe 40 ff ff 00 00 00 00 00 00 00 00 00 00    .@?@............
20: 00 00 00 00 00 00 00 00 00 00 00 00 00 03 0f 00    .............??.
30: 00 00 00 00 00 00 00 00 00 00 00 00 00 00 00 10    ...............?
40: 00 00 00 00 00 00 00 00 00 00 00 00 00 00 00 00    ................
50: 3f 00 00 00 00 00 00 00 00 00 00 00 00 00 00 00    ?...............
60: 20 00 00 df 00 00 67 f9 ff ff fc 00 00 00 00 00     ..?..g?..?.....
70: 00 00 00 00 00 00 00 00 f0 00 00 00 00 00 7f 00    ........?.....?.
80: 00 cf 00 00 e0 00 00 40 00 00 00 00 00 00 00 00    .?..?..@........
90: 94 00 00 00 00 00 00 80 02 20 00 00 80 00 00 48    ?......?? ..?..H
a0: 46 90 40 55 fc 17 c0 00 03 00 66 00 32 01 00 00    F?@U???.?.f.2?..
b0: 10 00 00 00 00 00 00 00 00 00 00 00 00 00 00 00    ?...............
c0: 00 00 00 00 00 00 00 00 00 00 00 00 00 00 00 00    ................
d0: 00 00 00 00 69 00 00 fe 00 00 00 00 00 00 00 00    ....i..?........
e0: 00 00 00 00 00 00 00 00 00 00 00 00 00 00 00 00    ................
f0: 00 00 00 00 00 00 00 00 00 00 00 00 00 00 02 09    ..............??
